Freq.	V(n017)
1.00000000000000e+05	(-1.02416945655503e+02dB,-8.61524400320643e+01°)
1.00695555005672e+05	(-1.01845486058471e+02dB,-8.62566849639937e+01°)
1.01395947979003e+05	(-1.01234334984949e+02dB,-8.63708328758791e+01°)
1.02101212570719e+05	(-1.00577489373622e+02dB,-8.64972616644189e+01°)
1.02811382665607e+05	(-9.98674788542232e+01dB,-8.66391558911772e+01°)
1.03526492384138e+05	(-9.90948451198876e+01dB,-8.68008807099745e+01°)
1.04246576084112e+05	(-9.82473679130197e+01dB,-8.69885849827834e+01°)
1.04971668362307e+05	(-9.73088736833085e+01dB,-8.72112160523880e+01°)
1.05701804056138e+05	(-9.62573242773423e+01dB,-8.74823158868542e+01°)
1.06437018245336e+05	(-9.50615917942280e+01dB,-8.78234034039334e+01°)
1.07177346253629e+05	(-9.36756632725285e+01dB,-8.82708576764859e+01°)
1.07922823650443e+05	(-9.20273521340100e+01dB,-8.88914048284448e+01°)
1.08673486252606e+05	(-8.99938112432062e+01dB,-8.98220267647759e+01°)
1.09429370126074e+05	(-8.73397189026073e+01dB,-9.13950272951257e+01°)
1.10190511587661e+05	(-8.35205241677351e+01dB,-9.46744557646700e+01°)
1.10956947206785e+05	(-7.67542770694149e+01dB,-1.05752693415339e+02°)
1.11728713807222e+05	(-6.96223415476656e+01dB,1.45837287217127e+02°)
1.12505848468881e+05	(-8.04254098373725e+01dB,1.07357710305860e+02°)
1.13288388529580e+05	(-8.54494181299748e+01dB,1.01557447870574e+02°)
1.14076371586843e+05	(-8.86356516575649e+01dB,9.92881600044927e+01°)
1.14869835499704e+05	(-9.09671070198043e+01dB,9.80718683755554e+01°)
1.15668818390529e+05	(-9.28053696847009e+01dB,9.73078679181366e+01°)
1.16473358646846e+05	(-9.43227429858007e+01dB,9.67791534111826e+01°)
1.17283494923188e+05	(-9.56146929707414e+01dB,9.63883829717221e+01°)
1.18099266142953e+05	(-9.67396166939582e+01dB,9.60854174391094e+01°)
1.18920711500272e+05	(-9.77358332934329e+01dB,9.58418099904407e+01°)
1.19747870461893e+05	(-9.86298414934290e+01dB,9.56402223614232e+01°)
1.20580782769076e+05	(-9.94407279365834e+01dB,9.54694855841319e+01°)
1.21419488439505e+05	(-1.00182695754622e+02dB,9.53220804753806e+01°)
1.22264027769207e+05	(-1.00866599631607e+02dB,9.51927594613319e+01°)
1.23114441334492e+05	(-1.01500921658122e+02dB,9.50777489610350e+01°)
1.23970769993899e+05	(-1.02092415830686e+02dB,9.49742657576723e+01°)
1.24833054890161e+05	(-1.02646547625162e+02dB,9.48802120449913e+01°)
1.25701337452183e+05	(-1.03167802159281e+02dB,9.47939766093821e+01°)
1.26575659397028e+05	(-1.03659905427109e+02dB,9.47143014183632e+01°)
1.27456062731927e+05	(-1.04125986459383e+02dB,9.46401898186968e+01°)
1.28342589756291e+05	(-1.04568698378907e+02dB,9.45708419520241e+01°)
1.29235283063750e+05	(-1.04990310251055e+02dB,9.45056084183854e+01°)
1.30134185544194e+05	(-1.05392777795111e+02dB,9.44439564426887e+01°)
1.31039340385837e+05	(-1.05777798537698e+02dB,9.43854447778349e+01°)
1.31950791077290e+05	(-1.06146855342852e+02dB,9.43297048213599e+01°)
1.32868581409652e+05	(-1.06501251139333e+02dB,9.42764262222033e+01°)
1.33792755478612e+05	(-1.06842136898296e+02dB,9.42253457788617e+01°)
1.34723357686569e+05	(-1.07170534376646e+02dB,9.41762387839137e+01°)
1.35660432744768e+05	(-1.07487354758851e+02dB,9.41289122076895e+01°)
1.36604025675440e+05	(-1.07793414053916e+02dB,9.40831992810030e+01°)
1.37554181813975e+05	(-1.08089445902473e+02dB,9.40389551531152e+01°)
1.38510946811093e+05	(-1.08376112299761e+02dB,9.39960533836917e+01°)
1.39474366635041e+05	(-1.08654012628632e+02dB,9.39543830877211e+01°)
1.40444487573800e+05	(-1.08923691312430e+02dB,9.39138465961747e+01°)
1.41421356237310e+05	(-1.09185644333290e+02dB,9.38743575264475e+01°)
1.42405019559708e+05	(-1.09440324811891e+02dB,9.38358391813845e+01°)
1.43395524801583e+05	(-1.09688147806278e+02dB,9.37982232136512e+01°)
1.44392919552250e+05	(-1.09929494457351e+02dB,9.37614485051533e+01°)
1.45397251732032e+05	(-1.10164715584933e+02dB,9.37254602223138e+01°)
1.46408569594563e+05	(-1.10394134819525e+02dB,9.36902090159561e+01°)
1.47426921729111e+05	(-1.10618051339891e+02dB,9.36556503404640e+01°)
1.48452357062906e+05	(-1.10836742274542e+02dB,9.36217438719734e+01°)
1.49484924863494e+05	(-1.11050464815454e+02dB,9.35884530091963e+01°)
1.50524674741107e+05	(-1.11259458084411e+02dB,9.35557444436136e+01°)
1.51571656651040e+05	(-1.11463944785953e+02dB,9.35235877878454e+01°)
1.52625920896057e+05	(-1.11664132675517e+02dB,9.34919552535942e+01°)
1.53687518128802e+05	(-1.11860215867059e+02dB,9.34608213710263e+01°)
1.54756499354240e+05	(-1.12052376000735e+02dB,9.34301627439164e+01°)
1.55832915932101e+05	(-1.12240783288259e+02dB,9.33999578354159e+01°)
1.56916819579351e+05	(-1.12425597450989e+02dB,9.33701867798177e+01°)
1.58008262372676e+05	(-1.12606968563690e+02dB,9.33408312166002e+01°)
1.59107296750985e+05	(-1.12785037815122e+02dB,9.33118741443020e+01°)
1.60213975517925e+05	(-1.12959938195119e+02dB,9.32832997908611e+01°)
1.61328351844426e+05	(-1.13131795116498e+02dB,9.32550934987347e+01°)
1.62450479271248e+05	(-1.13300726979103e+02dB,9.32272416225414e+01°)
1.63580411711557e+05	(-1.13466845682311e+02dB,9.31997314380990e+01°)
1.64718203453515e+05	(-1.13630257091554e+02dB,9.31725510609994e+01°)
1.65863909162889e+05	(-1.13791061463721e+02dB,9.31456893735861e+01°)
1.67017583885675e+05	(-1.13949353835718e+02dB,9.31191359598038e+01°)
1.68179283050744e+05	(-1.14105224379939e+02dB,9.30928810462156e+01°)
1.69349062472506e+05	(-1.14258758729990e+02dB,9.30669154493172e+01°)
1.70526978353592e+05	(-1.14410038279580e+02dB,9.30412305276722e+01°)
1.71713087287552e+05	(-1.14559140457220e+02dB,9.30158181388893e+01°)
1.72907446261574e+05	(-1.14706138979008e+02dB,9.29906706005193e+01°)
1.74110112659226e+05	(-1.14851104081597e+02dB,9.29657806547468e+01°)
1.75321144263208e+05	(-1.14994102737157e+02dB,9.29411414361521e+01°)
1.76540599258132e+05	(-1.15135198851986e+02dB,9.29167464425622e+01°)
1.77768536233315e+05	(-1.15274453450250e+02dB,9.28925895084280e+01°)
1.79005014185596e+05	(-1.15411924844146e+02dB,9.28686647805117e+01°)
1.80250092522167e+05	(-1.15547668791689e+02dB,9.28449666957027e+01°)
1.81503831063433e+05	(-1.15681738643198e+02dB,9.28214899607690e+01°)
1.82766290045881e+05	(-1.15814185477407e+02dB,9.27982295337555e+01°)
1.84037530124976e+05	(-1.15945058228105e+02dB,9.27751806069444e+01°)
1.85317612378075e+05	(-1.16074403802065e+02dB,9.27523385911558e+01°)
1.86606598307363e+05	(-1.16202267188973e+02dB,9.27296991015520e+01°)
1.87904549842804e+05	(-1.16328691564011e+02dB,9.27072579441019e+01°)
1.89211529345120e+05	(-1.16453718383658e+02dB,9.26850111036281e+01°)
1.90527599608789e+05	(-1.16577387475258e+02dB,9.26629547324508e+01°)
1.91852823865054e+05	(-1.16699737120823e+02dB,9.26410851400469e+01°)
1.93187265784970e+05	(-1.16820804135514e+02dB,9.26193987833377e+01°)
1.94530989482458e+05	(-1.16940623941205e+02dB,9.25978922579449e+01°)
1.95884059517387e+05	(-1.17059230635489e+02dB,9.25765622898256e+01°)
1.97246540898673e+05	(-1.17176657056462e+02dB,9.25554057277303e+01°)
1.98618499087409e+05	(-1.17292934843602e+02dB,9.25344195360267e+01°)
2.00000000000001e+05	(-1.17408094494998e+02dB,9.25136007881849e+01°)
2.01391110011345e+05	(-1.17522165421218e+02dB,9.24929466606367e+01°)
2.02791895958007e+05	(-1.17635175996030e+02dB,9.24724544270140e+01°)
2.04202425141440e+05	(-1.17747153604196e+02dB,9.24521214529621e+01°)
2.05622765331215e+05	(-1.17858124686552e+02dB,9.24319451910590e+01°)
2.07052984768277e+05	(-1.17968114782543e+02dB,9.24119231762883e+01°)
2.08493152168226e+05	(-1.18077148570392e+02dB,9.23920530216933e+01°)
2.09943336724615e+05	(-1.18185249905052e+02dB,9.23723324143229e+01°)
2.11403608112278e+05	(-1.18292441854098e+02dB,9.23527591114933e+01°)
2.12874036490674e+05	(-1.18398746731680e+02dB,9.23333309371583e+01°)
2.14354692507260e+05	(-1.18504186130663e+02dB,9.23140457789094e+01°)
2.15845647300887e+05	(-1.18608780953081e+02dB,9.22949015844452e+01°)
2.17346972505213e+05	(-1.18712551438995e+02dB,9.22758963589503e+01°)
2.18858740252150e+05	(-1.18815517193861e+02dB,9.22570281622834e+01°)
2.20381023175324e+05	(-1.18917697214500e+02dB,9.22382951063881e+01°)
2.21913894413571e+05	(-1.19019109913757e+02dB,9.22196953529593e+01°)
2.23457427614446e+05	(-1.19119773143920e+02dB,9.22012271111007e+01°)
2.25011696937764e+05	(-1.19219704218982e+02dB,9.21828886352251e+01°)
2.26576777059162e+05	(-1.19318919935807e+02dB,9.21646782229699e+01°)
2.28152743173687e+05	(-1.19417436594271e+02dB,9.21465942134154e+01°)
2.29739670999409e+05	(-1.19515270016430e+02dB,9.21286349853009e+01°)
2.31337636781059e+05	(-1.19612435564772e+02dB,9.21107989551122e+01°)
2.32946717293693e+05	(-1.19708948159619e+02dB,9.20930845758237e+01°)
2.34566989846378e+05	(-1.19804822295697e+02dB,9.20754903351680e+01°)
2.36198532285908e+05	(-1.19900072057958e+02dB,9.20580147541641e+01°)
2.37841423000546e+05	(-1.19994711136657e+02dB,9.20406563860822e+01°)
2.39495740923788e+05	(-1.20088752841758e+02dB,9.20234138147618e+01°)
2.41161565538154e+05	(-1.20182210116685e+02dB,9.20062856537576e+01°)
2.42838976879012e+05	(-1.20275095551455e+02dB,9.19892705449864e+01°)
2.44528055538416e+05	(-1.20367421395238e+02dB,9.19723671576493e+01°)
2.46228882668985e+05	(-1.20459199568363e+02dB,9.19555741873720e+01°)
2.47941539987800e+05	(-1.20550441673798e+02dB,9.19388903550651e+01°)
2.49666109780325e+05	(-1.20641159008140e+02dB,9.19223144060390e+01°)
2.51402674904368e+05	(-1.20731362572137e+02dB,9.19058451091418e+01°)
2.53151318794058e+05	(-1.20821063080759e+02dB,9.18894812559386e+01°)
2.54912125463855e+05	(-1.20910270972853e+02dB,9.18732216598802e+01°)
2.56685179512583e+05	(-1.20998996420388e+02dB,9.18570651556427e+01°)
2.58470566127501e+05	(-1.21087249337325e+02dB,9.18410105982042e+01°)
2.60268371088389e+05	(-1.21175039388125e+02dB,9.18250568624337e+01°)
2.62078680771675e+05	(-1.21262375995906e+02dB,9.18092028421473e+01°)
2.63901582154581e+05	(-1.21349268350274e+02dB,9.17934474497737e+01°)
2.65737162819305e+05	(-1.21435725414843e+02dB,9.17777896155974e+01°)
2.67585510957225e+05	(-1.21521755934463e+02dB,9.17622282871356e+01°)
2.69446715373141e+05	(-1.21607368442144e+02dB,9.17467624288153e+01°)
2.71320865489537e+05	(-1.21692571265738e+02dB,9.17313910213277e+01°)
2.73208051350882e+05	(-1.21777372534343e+02dB,9.17161130610407e+01°)
2.75108363627951e+05	(-1.21861780184468e+02dB,9.17009275597399e+01°)
2.77021893622188e+05	(-1.21945801965962e+02dB,9.16858335440337e+01°)
2.78948733270084e+05	(-1.22029445447724e+02dB,9.16708300550144e+01°)
2.80888975147602e+05	(-1.22112718023196e+02dB,9.16559161477833e+01°)
2.82842712474622e+05	(-1.22195626915650e+02dB,9.16410908911025e+01°)
2.84810039119417e+05	(-1.22278179183281e+02dB,9.16263533670022e+01°)
2.86791049603169e+05	(-1.22360381724122e+02dB,9.16117026704636e+01°)
2.88785839104502e+05	(-1.22442241280765e+02dB,9.15971379089743e+01°)
2.90794503464065e+05	(-1.22523764444928e+02dB,9.15826582023809e+01°)
2.92817139189128e+05	(-1.22604957661850e+02dB,9.15682626823101e+01°)
2.94853843458223e+05	(-1.22685827234529e+02dB,9.15539504922202e+01°)
2.96904714125813e+05	(-1.22766379327817e+02dB,9.15397207868202e+01°)
2.98969849726991e+05	(-1.22846619972370e+02dB,9.15255727318681e+01°)
3.01049349482217e+05	(-1.22926555068456e+02dB,9.15115055040470e+01°)
3.03143313302083e+05	(-1.23006190389639e+02dB,9.14975182904566e+01°)
3.05251841792115e+05	(-1.23085531586333e+02dB,9.14836102886644e+01°)
3.07375036257606e+05	(-1.23164584189237e+02dB,9.14697807062647e+01°)
3.09512998708482e+05	(-1.23243353612654e+02dB,9.14560287607192e+01°)
3.11665831864204e+05	(-1.23321845157701e+02dB,9.14423536791909e+01°)
3.13833639158704e+05	(-1.23400064015406e+02dB,9.14287546982133e+01°)
3.16016524745355e+05	(-1.23478015269714e+02dB,9.14152310636758e+01°)
3.18214593501971e+05	(-1.23555703900385e+02dB,9.14017820304499e+01°)
3.20427951035853e+05	(-1.23633134785801e+02dB,9.13884068623807e+01°)
3.22656703688854e+05	(-1.23710312705687e+02dB,9.13751048320016e+01°)
3.24900958542498e+05	(-1.23787242343737e+02dB,9.13618752203557e+01°)
3.27160823423117e+05	(-1.23863928290164e+02dB,9.13487173169269e+01°)
3.29436406907033e+05	(-1.23940375044165e+02dB,9.13356304195262e+01°)
3.31727818325781e+05	(-1.24016587016310e+02dB,9.13226138338131e+01°)
3.34035167771352e+05	(-1.24092568530861e+02dB,9.13096668736636e+01°)
3.36358566101490e+05	(-1.24168323828009e+02dB,9.12967888606522e+01°)
3.38698124945015e+05	(-1.24243857066055e+02dB,9.12839791241285e+01°)
3.41053956707187e+05	(-1.24319172323518e+02dB,9.12712370008973e+01°)
3.43426174575106e+05	(-1.24394273601175e+02dB,9.12585618353071e+01°)
3.45814892523151e+05	(-1.24469164824055e+02dB,9.12459529790788e+01°)
3.48220225318454e+05	(-1.24543849843353e+02dB,9.12334097910491e+01°)
3.50642288526419e+05	(-1.24618332438307e+02dB,9.12209316372700e+01°)
3.53081198516267e+05	(-1.24692616318006e+02dB,9.12085178908587e+01°)
3.55537072466633e+05	(-1.24766705123151e+02dB,9.11961679318169e+01°)
3.58010028371194e+05	(-1.24840602427768e+02dB,9.11838811470063e+01°)
3.60500185044337e+05	(-1.24914311740867e+02dB,9.11716569300757e+01°)
3.63007662126869e+05	(-1.24987836508051e+02dB,9.11594946813478e+01°)
3.65532580091765e+05	(-1.25061180113090e+02dB,9.11473938077261e+01°)
3.68075060249955e+05	(-1.25134345879443e+02dB,9.11353537226625e+01°)
3.70635224756154e+05	(-1.25207337071735e+02dB,9.11233738461291e+01°)
3.73213196614728e+05	(-1.25280156897202e+02dB,9.11114536043817e+01°)
3.75809099685610e+05	(-1.25352808507089e+02dB,9.10995924300943e+01°)
3.78423058690244e+05	(-1.25425294998014e+02dB,9.10877897622080e+01°)
3.81055199217580e+05	(-1.25497619413291e+02dB,9.10760450458111e+01°)
3.83705647730111e+05	(-1.25569784744224e+02dB,9.10643577322554e+01°)
3.86374531569944e+05	(-1.25641793931356e+02dB,9.10527272789100e+01°)
3.89061978964920e+05	(-1.25713649865700e+02dB,9.10411531492859e+01°)
3.91768119034777e+05	(-1.25785355389920e+02dB,9.10296348128714e+01°)
3.94493081797350e+05	(-1.25856913299498e+02dB,9.10181717451326e+01°)
3.97236998174820e+05	(-1.25928326343858e+02dB,9.10067634275151e+01°)
4.00000000000006e+05	(-1.25999597227467e+02dB,9.09954093473393e+01°)
4.02782220022694e+05	(-1.26070728610909e+02dB,9.09841089978084e+01°)
4.05583791916018e+05	(-1.26141723111930e+02dB,9.09728618779926e+01°)
4.08404850282884e+05	(-1.26212583306453e+02dB,9.09616674927590e+01°)
4.11245530662433e+05	(-1.26283311729578e+02dB,9.09505253527296e+01°)
4.14105969536557e+05	(-1.26353910876543e+02dB,9.09394349743890e+01°)
4.16986304336455e+05	(-1.26424383203678e+02dB,9.09283958799339e+01°)
4.19886673449234e+05	(-1.26494731129320e+02dB,9.09174075972679e+01°)
4.22807216224559e+05	(-1.26564957034718e+02dB,9.09064696600319e+01°)
4.25748072981351e+05	(-1.26635063264907e+02dB,9.08955816076008e+01°)
4.28709385014524e+05	(-1.26705052129572e+02dB,9.08847429850899e+01°)
4.31691294601778e+05	(-1.26774925903881e+02dB,9.08739533431863e+01°)
4.34693945010430e+05	(-1.26844686829302e+02dB,9.08632122384161e+01°)
4.37717480504303e+05	(-1.26914337114410e+02dB,9.08525192328950e+01°)
4.40762046350651e+05	(-1.26983878935659e+02dB,9.08418738944564e+01°)
4.43827788827145e+05	(-1.27053314438151e+02dB,9.08312757966652e+01°)
4.46914855228895e+05	(-1.27122645736382e+02dB,9.08207245187498e+01°)
4.50023393875531e+05	(-1.27191874914968e+02dB,9.08102196457085e+01°)
4.53153554118327e+05	(-1.27261004029365e+02dB,9.07997607680920e+01°)
4.56305486347377e+05	(-1.27330035106558e+02dB,9.07893474824788e+01°)
4.59479341998822e+05	(-1.27398970145756e+02dB,9.07789793908984e+01°)
4.62675273562123e+05	(-1.27467811119049e+02dB,9.07686561013458e+01°)
4.65893434587390e+05	(-1.27536559972069e+02dB,9.07583772275058e+01°)
4.69133979692759e+05	(-1.27605218624629e+02dB,9.07481423889127e+01°)
4.72397064571820e+05	(-1.27673788971349e+02dB,9.07379512109503e+01°)
4.75682846001097e+05	(-1.27742272882273e+02dB,9.07278033248344e+01°)
4.78991481847580e+05	(-1.27810672203468e+02dB,9.07176983677109e+01°)
4.82323131076312e+05	(-1.27878988757619e+02dB,9.07076359826072e+01°)
4.85677953758027e+05	(-1.27947224344600e+02dB,9.06976158186042e+01°)
4.89056111076836e+05	(-1.28015380742046e+02dB,9.06876375306596e+01°)
4.92457765337975e+05	(-1.28083459705910e+02dB,9.06777007798842e+01°)
4.95883079975603e+05	(-1.28151462971003e+02dB,9.06678052333353e+01°)
4.99332219560654e+05	(-1.28219392251535e+02dB,9.06579505644337e+01°)
5.02805349808740e+05	(-1.28287249241635e+02dB,9.06481364524911e+01°)
5.06302637588121e+05	(-1.28355035615870e+02dB,9.06383625833056e+01°)
5.09824250927714e+05	(-1.28422753029749e+02dB,9.06286286487884e+01°)
5.13370359025171e+05	(-1.28490403120223e+02dB,9.06189343472652e+01°)
5.16941132255006e+05	(-1.28557987506168e+02dB,9.06092793834089e+01°)
5.20536742176783e+05	(-1.28625507788869e+02dB,9.05996634684506e+01°)
5.24157361543355e+05	(-1.28692965552490e+02dB,9.05900863200087e+01°)
5.27803164309167e+05	(-1.28760362364539e+02dB,9.05805476623752e+01°)
5.31474325638614e+05	(-1.28827699776321e+02dB,9.05710472265625e+01°)
5.35171021914455e+05	(-1.28894979323388e+02dB,9.05615847501731e+01°)
5.38893430746286e+05	(-1.28962202525983e+02dB,9.05521599777328e+01°)
5.42641730979079e+05	(-1.29029370889467e+02dB,9.05427726605647e+01°)
5.46416102701768e+05	(-1.29096485904754e+02dB,9.05334225570635e+01°)
5.50216727255908e+05	(-1.29163549048727e+02dB,9.05241094326774e+01°)
5.54043787244380e+05	(-1.29230561784655e+02dB,9.05148330599006e+01°)
5.57897466540173e+05	(-1.29297525562602e+02dB,9.05055932185176e+01°)
5.61777950295210e+05	(-1.29364441819826e+02dB,9.04963896956713e+01°)
5.65685424949249e+05	(-1.29431311981180e+02dB,9.04872222860083e+01°)
5.69620078238840e+05	(-1.29498137459502e+02dB,9.04780907915307e+01°)
5.73582099206342e+05	(-1.29564919656000e+02dB,9.04689950219672e+01°)
5.77571678209010e+05	(-1.29631659960635e+02dB,9.04599347948182e+01°)
5.81589006928136e+05	(-1.29698359752496e+02dB,9.04509099354810e+01°)
5.85634278378262e+05	(-1.29765020400172e+02dB,9.04419202772946e+01°)
5.89707686916452e+05	(-1.29831643262117e+02dB,9.04329656615511e+01°)
5.93809428251631e+05	(-1.29898229687015e+02dB,9.04240459380182e+01°)
5.97939699453987e+05	(-1.29964781014139e+02dB,9.04151609646474e+01°)
6.02098698964439e+05	(-1.30031298573699e+02dB,9.04063106079479e+01°)
6.06286626604171e+05	(-1.30097783687200e+02dB,9.03974947430155e+01°)
6.10503683584236e+05	(-1.30164237667784e+02dB,9.03887132537165e+01°)
6.14750072515217e+05	(-1.30230661820574e+02dB,9.03799660327637e+01°)
6.19025997416968e+05	(-1.30297057443013e+02dB,9.03712529820326e+01°)
6.23331663728412e+05	(-1.30363425825201e+02dB,9.03625740125645e+01°)
6.27667278317413e+05	(-1.30429768250229e+02dB,9.03539290446879e+01°)
6.32033049490714e+05	(-1.30496085994507e+02dB,9.03453180083539e+01°)
6.36429187003948e+05	(-1.30562380328091e+02dB,9.03367408432332e+01°)
6.40855902071711e+05	(-1.30628652515010e+02dB,9.03281974987242e+01°)
6.45313407377714e+05	(-1.30694903813588e+02dB,9.03196879344365e+01°)
6.49801917085002e+05	(-1.30761135476759e+02dB,9.03112121200392e+01°)
6.54321646846238e+05	(-1.30827348752390e+02dB,9.03027700358020e+01°)
6.58872813814072e+05	(-1.30893544883594e+02dB,9.02943616724481e+01°)
6.63455636651567e+05	(-1.30959725109039e+02dB,9.02859870316681e+01°)
6.68070335542709e+05	(-1.31025890663268e+02dB,9.02776461259374e+01°)
6.72717132202986e+05	(-1.31092042776998e+02dB,9.02693389792147e+01°)
6.77396249890036e+05	(-1.31158182677435e+02dB,9.02610656267745e+01°)
6.82107913414380e+05	(-1.31224311588580e+02dB,9.02528261155207e+01°)
6.86852349150217e+05	(-1.31290430731528e+02dB,9.02446205042681e+01°)
6.91629785046307e+05	(-1.31356541324777e+02dB,9.02364488641211e+01°)
6.96440450636914e+05	(-1.31422644584529e+02dB,9.02283112781783e+01°)
7.01284577052843e+05	(-1.31488741724989e+02dB,9.02202078426534e+01°)
7.06162397032539e+05	(-1.31554833958669e+02dB,9.02121386662698e+01°)
7.11074144933271e+05	(-1.31620922496684e+02dB,9.02041038708949e+01°)
7.16020056742393e+05	(-1.31687008549052e+02dB,9.01961035920477e+01°)
