Freq.	V(n016)
1.00000000000000e+05	(7.16024748325766e+01dB,4.28904300287246e+00°)
1.00695555005672e+05	(7.16465109119232e+01dB,4.20078030836964e+00°)
1.01395947979003e+05	(7.16965696212805e+01dB,4.10548914975692e+00°)
1.02101212570719e+05	(7.17540002074760e+01dB,4.00140447161993e+00°)
1.02811382665607e+05	(7.18205868490120e+01dB,3.88614256317367e+00°)
1.03526492384138e+05	(7.18987393988884e+01dB,3.75640517693564e+00°)
1.04246576084112e+05	(7.19917942321557e+01dB,3.60749685701764e+00°)
1.04971668362307e+05	(7.21045073027889e+01dB,3.43250255234595e+00°)
1.05701804056138e+05	(7.22438998966896e+01dB,3.22081147142474e+00°)
1.06437018245336e+05	(7.24207916343913e+01dB,2.95529340124057e+00°)
1.07177346253629e+05	(7.26527753531612e+01dB,2.60644986955884e+00°)
1.07922823650443e+05	(7.29705134974931e+01dB,2.11898810126002e+00°)
1.08673486252606e+05	(7.34326836884650e+01dB,1.37642338087681e+00°)
1.09429370126074e+05	(7.41675978773171e+01dB,8.72119974811289e-02°)
1.10190511587661e+05	(7.55206272620837e+01dB,-2.71842688697747e+00°)
1.10956947206785e+05	(7.88322472070993e+01dB,-1.28545103325482e+01°)
1.11728713807222e+05	(8.01562884898922e+01dB,-1.18516284853312e+02°)
1.12505848468881e+05	(4.99065623559905e+01dB,-9.53877400718614e+01°)
1.13288388529580e+05	(6.35863865104231e+01dB,5.40580226724419e+00°)
1.14076371586843e+05	(6.65768700060732e+01dB,6.26311133393094e+00°)
1.14869835499704e+05	(6.78245815158764e+01dB,6.05958538772442e+00°)
1.15668818390529e+05	(6.85149883785252e+01dB,5.79412867053806e+00°)
1.16473358646846e+05	(6.89543874173199e+01dB,5.56066759763875e+00°)
1.17283494923188e+05	(6.92589276615598e+01dB,5.36418326894890e+00°)
1.18099266142953e+05	(6.94825623684173e+01dB,5.19805905707712e+00°)
1.18920711500272e+05	(6.96538151673705e+01dB,5.05549980488899e+00°)
1.19747870461893e+05	(6.97891976059930e+01dB,4.93115228704144e+00°)
1.20580782769076e+05	(6.98989352438304e+01dB,4.82101876137890e+00°)
1.21419488439505e+05	(6.99897010938178e+01dB,4.72213365551600e+00°)
1.22264027769207e+05	(7.00660360054877e+01dB,4.63227979123249e+00°)
1.23114441334492e+05	(7.01311376881498e+01dB,4.54977847912270e+00°)
1.23970769993899e+05	(7.01873233467924e+01dB,4.47334098665585e+00°)
1.24833054890161e+05	(7.02363133471883e+01dB,4.40196427459167e+00°)
1.25701337452183e+05	(7.02794118190893e+01dB,4.33485741670640e+00°)
1.26575659397028e+05	(7.03176254017602e+01dB,4.27138911580168e+00°)
1.27456062731927e+05	(7.03517435214384e+01dB,4.21104979123474e+00°)
1.28342589756291e+05	(7.03823939982950e+01dB,4.15342382940080e+00°)
1.29235283063750e+05	(7.04100823990719e+01dB,4.09816900783844e+00°)
1.30134185544194e+05	(7.04352204221459e+01dB,4.04500104786279e+00°)
1.31039340385837e+05	(7.04581467234544e+01dB,3.99368187986202e+00°)
1.31950791077290e+05	(7.04791424324275e+01dB,3.94401062985104e+00°)
1.32868581409652e+05	(7.04984428733356e+01dB,3.89581662423856e+00°)
1.33792755478612e+05	(7.05162465324548e+01dB,3.84895390787254e+00°)
1.34723357686569e+05	(7.05327219977126e+01dB,3.80329690890072e+00°)
1.35660432744768e+05	(7.05480133863097e+01dB,3.75873698162267e+00°)
1.36604025675440e+05	(7.05622446312231e+01dB,3.71517962734084e+00°)
1.37554181813975e+05	(7.05755228970569e+01dB,3.67254224375503e+00°)
1.38510946811093e+05	(7.05879413248096e+01dB,3.63075228956576e+00°)
1.39474366635041e+05	(7.05995812545200e+01dB,3.58974577791977e+00°)
1.40444487573800e+05	(7.06105140381157e+01dB,3.54946603218481e+00°)
1.41421356237310e+05	(7.06208025279830e+01dB,3.50986265231613e+00°)
1.42405019559708e+05	(7.06305023069913e+01dB,3.47089065157954e+00°)
1.43395524801583e+05	(7.06396627108768e+01dB,3.43250973169956e+00°)
1.44392919552250e+05	(7.06483276827823e+01dB,3.39468367141885e+00°)
1.45397251732032e+05	(7.06565364912299e+01dB,3.35737980818624e+00°)
1.46408569594563e+05	(7.06643243363401e+01dB,3.32056859695395e+00°)
1.47426921729111e+05	(7.06717228640752e+01dB,3.28422323300443e+00°)
1.48452357062906e+05	(7.06787606043919e+01dB,3.24831932827469e+00°)
1.49484924863494e+05	(7.06854633461146e+01dB,3.21283463249065e+00°)
1.50524674741107e+05	(7.06918544589497e+01dB,3.17774879207108e+00°)
1.51571656651040e+05	(7.06979551711346e+01dB,3.14304314101260e+00°)
1.52625920896057e+05	(7.07037848096965e+01dB,3.10870051886665e+00°)
1.53687518128802e+05	(7.07093610090541e+01dB,3.07470511177228e+00°)
1.54756499354240e+05	(7.07146998927417e+01dB,3.04104231331446e+00°)
1.55832915932101e+05	(7.07198162322041e+01dB,3.00769860232299e+00°)
1.56916819579351e+05	(7.07247235859613e+01dB,2.97466143521853e+00°)
1.58008262372676e+05	(7.07294344219290e+01dB,2.94191915100228e+00°)
1.59107296750985e+05	(7.07339602252182e+01dB,2.90946088713810e+00°)
1.60213975517925e+05	(7.07383115933917e+01dB,2.87727650491984e+00°)
1.61328351844426e+05	(7.07424983208449e+01dB,2.84535652310929e+00°)
1.62450479271248e+05	(7.07465294737320e+01dB,2.81369205875285e+00°)
1.63580411711557e+05	(7.07504134566547e+01dB,2.78227477434326e+00°)
1.64718203453515e+05	(7.07541580721434e+01dB,2.75109683046096e+00°)
1.65863909162889e+05	(7.07577705738396e+01dB,2.72015084340903e+00°)
1.67017583885675e+05	(7.07612577141230e+01dB,2.68942984701576e+00°)
1.68179283050744e+05	(7.07646257868628e+01dB,2.65892725829605e+00°)
1.69349062472506e+05	(7.07678806658687e+01dB,2.62863684650589e+00°)
1.70526978353592e+05	(7.07710278395228e+01dB,2.59855270511376e+00°)
1.71713087287552e+05	(7.07740724420446e+01dB,2.56866922648542e+00°)
1.72907446261574e+05	(7.07770192817512e+01dB,2.53898107889144e+00°)
1.74110112659226e+05	(7.07798728666574e+01dB,2.50948318566843e+00°)
1.75321144263208e+05	(7.07826374276901e+01dB,2.48017070622625e+00°)
1.76540599258132e+05	(7.07853169397839e+01dB,2.45103901877816e+00°)
1.77768536233315e+05	(7.07879151410716e+01dB,2.42208370456552e+00°)
1.79005014185596e+05	(7.07904355503734e+01dB,2.39330053346286e+00°)
1.80250092522167e+05	(7.07928814831575e+01dB,2.36468545081640e+00°)
1.81503831063433e+05	(7.07952560661173e+01dB,2.33623456534888e+00°)
1.82766290045881e+05	(7.07975622505188e+01dB,2.30794413811887e+00°)
1.84037530124976e+05	(7.07998028244238e+01dB,2.27981057235211e+00°)
1.85317612378075e+05	(7.08019804239028e+01dB,2.25183040409125e+00°)
1.86606598307363e+05	(7.08040975433382e+01dB,2.22400029361012e+00°)
1.87904549842804e+05	(7.08061565448919e+01dB,2.19631701747080e+00°)
1.89211529345120e+05	(7.08081596672278e+01dB,2.16877746121559e+00°)
1.90527599608789e+05	(7.08101090335476e+01dB,2.14137861261118e+00°)
1.91852823865054e+05	(7.08120066590068e+01dB,2.11411755540159e+00°)
1.93187265784970e+05	(7.08138544575654e+01dB,2.08699146353128e+00°)
1.94530989482458e+05	(7.08156542483202e+01dB,2.05999759578056e+00°)
1.95884059517387e+05	(7.08174077613658e+01dB,2.03313329078064e+00°)
1.97246540898673e+05	(7.08191166432297e+01dB,2.00639596243149e+00°)
1.98618499087409e+05	(7.08207824619054e+01dB,1.97978309558063e+00°)
2.00000000000001e+05	(7.08224067115311e+01dB,1.95329224205217e+00°)
2.01391110011345e+05	(7.08239908167309e+01dB,1.92692101691542e+00°)
2.02791895958007e+05	(7.08255361366585e+01dB,1.90066709503898e+00°)
2.04202425141440e+05	(7.08270439687547e+01dB,1.87452820784503e+00°)
2.05622765331215e+05	(7.08285155522505e+01dB,1.84850214029737e+00°)
2.07052984768277e+05	(7.08299520714355e+01dB,1.82258672808886e+00°)
2.08493152168226e+05	(7.08313546587019e+01dB,1.79677985499073e+00°)
2.09943336724615e+05	(7.08327243973926e+01dB,1.77107945039669e+00°)
2.11403608112278e+05	(7.08340623244606e+01dB,1.74548348700846e+00°)
2.12874036490674e+05	(7.08353694329557e+01dB,1.71998997866264e+00°)
2.14354692507260e+05	(7.08366466743541e+01dB,1.69459697830214e+00°)
2.15845647300887e+05	(7.08378949607372e+01dB,1.66930257605963e+00°)
2.17346972505213e+05	(7.08391151668382e+01dB,1.64410489747115e+00°)
2.18858740252150e+05	(7.08403081319575e+01dB,1.61900210177979e+00°)
2.20381023175324e+05	(7.08414746617633e+01dB,1.59399238034780e+00°)
2.21913894413571e+05	(7.08426155299820e+01dB,1.56907395516333e+00°)
2.23457427614446e+05	(7.08437314799861e+01dB,1.54424507742256e+00°)
2.25011696937764e+05	(7.08448232262903e+01dB,1.51950402620858e+00°)
2.26576777059162e+05	(7.08458914559551e+01dB,1.49484910722480e+00°)
2.28152743173687e+05	(7.08469368299128e+01dB,1.47027865161429e+00°)
2.29739670999409e+05	(7.08479599842136e+01dB,1.44579101483055e+00°)
2.31337636781059e+05	(7.08489615312037e+01dB,1.42138457559163e+00°)
2.32946717293693e+05	(7.08499420606323e+01dB,1.39705773485507e+00°)
2.34566989846378e+05	(7.08509021407010e+01dB,1.37280891488265e+00°)
2.36198532285908e+05	(7.08518423190511e+01dB,1.34863655832815e+00°)
2.37841423000546e+05	(7.08527631237002e+01dB,1.32453912739294e+00°)
2.39495740923788e+05	(7.08536650639219e+01dB,1.30051510299684e+00°)
2.41161565538154e+05	(7.08545486310864e+01dB,1.27656298402510e+00°)
2.42838976879012e+05	(7.08554142994476e+01dB,1.25268128658673e+00°)
2.44528055538416e+05	(7.08562625268937e+01dB,1.22886854331849e+00°)
2.46228882668985e+05	(7.08570937556556e+01dB,1.20512330271740e+00°)
2.47941539987800e+05	(7.08579084129811e+01dB,1.18144412852220e+00°)
2.49666109780325e+05	(7.08587069117701e+01dB,1.15782959909631e+00°)
2.51402674904368e+05	(7.08594896511826e+01dB,1.13427830686833e+00°)
2.53151318794058e+05	(7.08602570172094e+01dB,1.11078885777218e+00°)
2.54912125463855e+05	(7.08610093832213e+01dB,1.08735987073930e+00°)
2.56685179512583e+05	(7.08617471104830e+01dB,1.06398997718196e+00°)
2.58470566127501e+05	(7.08624705486499e+01dB,1.04067782054023e+00°)
2.60268371088389e+05	(7.08631800362316e+01dB,1.01742205579805e+00°)
2.62078680771675e+05	(7.08638759010415e+01dB,9.94221349075972e-01°)
2.63901582154581e+05	(7.08645584606184e+01dB,9.71074377194171e-01°)
2.65737162819305e+05	(7.08652280226301e+01dB,9.47979827278054e-01°)
2.67585510957225e+05	(7.08658848852583e+01dB,9.24936396378696e-01°)
2.69446715373141e+05	(7.08665293375648e+01dB,9.01942791100740e-01°)
2.71320865489537e+05	(7.08671616598406e+01dB,8.78997727252276e-01°)
2.73208051350882e+05	(7.08677821239378e+01dB,8.56099929503025e-01°)
2.75108363627951e+05	(7.08683909935890e+01dB,8.33248131066017e-01°)
2.77021893622188e+05	(7.08689885247087e+01dB,8.10441073376276e-01°)
2.78948733270084e+05	(7.08695749656836e+01dB,7.87677505797617e-01°)
2.80888975147602e+05	(7.08701505576485e+01dB,7.64956185328445e-01°)
2.82842712474622e+05	(7.08707155347496e+01dB,7.42275876321219e-01°)
2.84810039119417e+05	(7.08712701243981e+01dB,7.19635350221400e-01°)
2.86791049603169e+05	(7.08718145475107e+01dB,6.97033385303282e-01°)
2.88785839104502e+05	(7.08723490187393e+01dB,6.74468766419812e-01°)
2.90794503464065e+05	(7.08728737466934e+01dB,6.51940284763676e-01°)
2.92817139189128e+05	(7.08733889341499e+01dB,6.29446737637166e-01°)
2.94853843458223e+05	(7.08738947782556e+01dB,6.06986928218764e-01°)
2.96904714125813e+05	(7.08743914707209e+01dB,5.84559665355552e-01°)
2.98969849726991e+05	(7.08748791980047e+01dB,5.62163763347160e-01°)
3.01049349482217e+05	(7.08753581414928e+01dB,5.39798041744866e-01°)
3.03143313302083e+05	(7.08758284776674e+01dB,5.17461325154394e-01°)
3.05251841792115e+05	(7.08762903782709e+01dB,4.95152443042633e-01°)
3.07375036257606e+05	(7.08767440104624e+01dB,4.72870229557482e-01°)
3.09512998708482e+05	(7.08771895369668e+01dB,4.50613523340878e-01°)
3.11665831864204e+05	(7.08776271162210e+01dB,4.28381167364438e-01°)
3.13833639158704e+05	(7.08780569025108e+01dB,4.06172008755626e-01°)
3.16016524745355e+05	(7.08784790461037e+01dB,3.83984898629055e-01°)
3.18214593501971e+05	(7.08788936933771e+01dB,3.61818691936339e-01°)
3.20427951035853e+05	(7.08793009869404e+01dB,3.39672247302286e-01°)
3.22656703688854e+05	(7.08797010657530e+01dB,3.17544426879395e-01°)
3.24900958542498e+05	(7.08800940652381e+01dB,2.95434096201948e-01°)
3.27160823423117e+05	(7.08804801173898e+01dB,2.73340124036290e-01°)
3.29436406907033e+05	(7.08808593508799e+01dB,2.51261382246674e-01°)
3.31727818325781e+05	(7.08812318911570e+01dB,2.29196745660930e-01°)
3.34035167771352e+05	(7.08815978605444e+01dB,2.07145091932196e-01°)
3.36358566101490e+05	(7.08819573783324e+01dB,1.85105301414376e-01°)
3.38698124945015e+05	(7.08823105608692e+01dB,1.63076257031776e-01°)
3.41053956707187e+05	(7.08826575216459e+01dB,1.41056844160079e-01°)
3.43426174575106e+05	(7.08829983713816e+01dB,1.19045950505400e-01°)
3.45814892523151e+05	(7.08833332181015e+01dB,9.70424659789680e-02°)
3.48220225318454e+05	(7.08836621672158e+01dB,7.50452825945108e-02°)
3.50642288526419e+05	(7.08839853215933e+01dB,5.30532943444957e-02°)
3.53081198516267e+05	(7.08843027816336e+01dB,3.10653970936878e-02°)
3.55537072466633e+05	(7.08846146453358e+01dB,9.08048847140468e-03°)
3.58010028371194e+05	(7.08849210083661e+01dB,-1.29025322344496e-02°)
3.60500185044337e+05	(7.08852219641212e+01dB,-3.48847641826199e-02°)
3.63007662126869e+05	(7.08855176037912e+01dB,-5.68673050808211e-02°)
3.65532580091765e+05	(7.08858080164189e+01dB,-7.88512512834918e-02°)
3.68075060249955e+05	(7.08860932889583e+01dB,-1.00837697892960e-01°)
3.70635224756154e+05	(7.08863735063301e+01dB,-1.22827738854965e-01°)
3.73213196614728e+05	(7.08866487514751e+01dB,-1.44822467052777e-01°)
3.75809099685610e+05	(7.08869191054076e+01dB,-1.66822974401317e-01°)
3.78423058690244e+05	(7.08871846472643e+01dB,-1.88830351939735e-01°)
3.81055199217580e+05	(7.08874454543541e+01dB,-2.10845689918633e-01°)
3.83705647730111e+05	(7.08877016022038e+01dB,-2.32870077894084e-01°)
3.86374531569944e+05	(7.08879531646048e+01dB,-2.54904604809169e-01°)
3.89061978964920e+05	(7.08882002136560e+01dB,-2.76950359084786e-01°)
3.91768119034777e+05	(7.08884428198066e+01dB,-2.99008428703838e-01°)
3.94493081797350e+05	(7.08886810518969e+01dB,-3.21079901293567e-01°)
3.97236998174820e+05	(7.08889149771987e+01dB,-3.43165864207792e-01°)
4.00000000000006e+05	(7.08891446614524e+01dB,-3.65267404611067e-01°)
4.02782220022694e+05	(7.08893701689050e+01dB,-3.87385609558056e-01°)
4.05583791916018e+05	(7.08895915623460e+01dB,-4.09521566071001e-01°)
4.08404850282884e+05	(7.08898089031419e+01dB,-4.31676361221519e-01°)
4.11245530662433e+05	(7.08900222512695e+01dB,-4.53851082205872e-01°)
4.14105969536557e+05	(7.08902316653493e+01dB,-4.76046816422156e-01°)
4.16986304336455e+05	(7.08904372026763e+01dB,-4.98264651546983e-01°)
4.19886673449234e+05	(7.08906389192506e+01dB,-5.20505675610669e-01°)
4.22807216224559e+05	(7.08908368698077e+01dB,-5.42770977067963e-01°)
4.25748072981351e+05	(7.08910311078458e+01dB,-5.65061644876931e-01°)
4.28709385014524e+05	(7.08912216856545e+01dB,-5.87378768569249e-01°)
4.31691294601778e+05	(7.08914086543417e+01dB,-6.09723438319055e-01°)
4.34693945010430e+05	(7.08915920638590e+01dB,-6.32096745020605e-01°)
4.37717480504303e+05	(7.08917719630271e+01dB,-6.54499780354629e-01°)
4.40762046350651e+05	(7.08919483995609e+01dB,-6.76933636858443e-01°)
4.43827788827145e+05	(7.08921214200919e+01dB,-6.99399407998906e-01°)
4.46914855228895e+05	(7.08922910701925e+01dB,-7.21898188238304e-01°)
4.50023393875531e+05	(7.08924573943971e+01dB,-7.44431073104518e-01°)
4.53153554118327e+05	(7.08926204362247e+01dB,-7.66999159255436e-01°)
4.56305486347377e+05	(7.08927802381990e+01dB,-7.89603544555199e-01°)
4.59479341998822e+05	(7.08929368418688e+01dB,-8.12245328129430e-01°)
4.62675273562123e+05	(7.08930902878281e+01dB,-8.34925610441894e-01°)
4.65893434587390e+05	(7.08932406157350e+01dB,-8.57645493353975e-01°)
4.69133979692759e+05	(7.08933878643296e+01dB,-8.80406080194483e-01°)
4.72397064571820e+05	(7.08935320714529e+01dB,-9.03208475824199e-01°)
4.75682846001097e+05	(7.08936732740633e+01dB,-9.26053786698509e-01°)
4.78991481847580e+05	(7.08938115082542e+01dB,-9.48943120936161e-01°)
4.82323131076312e+05	(7.08939468092698e+01dB,-9.71877588378786e-01°)
4.85677953758027e+05	(7.08940792115214e+01dB,-9.94858300659985e-01°)
4.89056111076836e+05	(7.08942087486022e+01dB,-1.01788637126475e+00°)
4.92457765337975e+05	(7.08943354533031e+01dB,-1.04096291559624e+00°)
4.95883079975603e+05	(7.08944593576267e+01dB,-1.06408905103466e+00°)
4.99332219560654e+05	(7.08945804928010e+01dB,-1.08726589700814e+00°)
5.02805349808740e+05	(7.08946988892938e+01dB,-1.11049457504453e+00°)
5.06302637588121e+05	(7.08948145768255e+01dB,-1.13377620884395e+00°)
5.09824250927714e+05	(7.08949275843820e+01dB,-1.15711192433421e+00°)
5.13370359025171e+05	(7.08950379402271e+01dB,-1.18050284973653e+00°)
5.16941132255006e+05	(7.08951456719147e+01dB,-1.20395011562507e+00°)
5.20536742176783e+05	(7.08952508063005e+01dB,-1.22745485499224e+00°)
5.24157361543355e+05	(7.08953533695535e+01dB,-1.25101820330453e+00°)
5.27803164309167e+05	(7.08954533871665e+01dB,-1.27464129856949e+00°)
5.31474325638614e+05	(7.08955508839676e+01dB,-1.29832528139487e+00°)
5.35171021914455e+05	(7.08956458841299e+01dB,-1.32207129504772e+00°)
5.38893430746286e+05	(7.08957384111820e+01dB,-1.34588048551839e+00°)
5.42641730979079e+05	(7.08958284880174e+01dB,-1.36975400157977e+00°)
5.46416102701768e+05	(7.08959161369043e+01dB,-1.39369299484832e+00°)
5.50216727255908e+05	(7.08960013794945e+01dB,-1.41769861984695e+00°)
5.54043787244380e+05	(7.08960842368327e+01dB,-1.44177203406064e+00°)
5.57897466540173e+05	(7.08961647293646e+01dB,-1.46591439800125e+00°)
5.61777950295210e+05	(7.08962428769456e+01dB,-1.49012687526652e+00°)
5.65685424949249e+05	(7.08963186988488e+01dB,-1.51441063260378e+00°)
5.69620078238840e+05	(7.08963922137728e+01dB,-1.53876683996234e+00°)
5.73582099206342e+05	(7.08964634398495e+01dB,-1.56319667056085e+00°)
5.77571678209010e+05	(7.08965323946512e+01dB,-1.58770130094740e+00°)
5.81589006928136e+05	(7.08965990951978e+01dB,-1.61228191105565e+00°)
5.85634278378262e+05	(7.08966635579640e+01dB,-1.63693968426948e+00°)
5.89707686916452e+05	(7.08967257988855e+01dB,-1.66167580747858e+00°)
5.93809428251631e+05	(7.08967858333656e+01dB,-1.68649147114431e+00°)
5.97939699453987e+05	(7.08968436762817e+01dB,-1.71138786935548e+00°)
6.02098698964439e+05	(7.08968993419912e+01dB,-1.73636619989153e+00°)
6.06286626604171e+05	(7.08969528443372e+01dB,-1.76142766428041e+00°)
6.10503683584236e+05	(7.08970041966542e+01dB,-1.78657346786131e+00°)
6.14750072515217e+05	(7.08970534117737e+01dB,-1.81180481984236e+00°)
6.19025997416968e+05	(7.08971005020295e+01dB,-1.83712293336528e+00°)
6.23331663728412e+05	(7.08971454792622e+01dB,-1.86252902556194e+00°)
6.27667278317413e+05	(7.08971883548250e+01dB,-1.88802431761455e+00°)
6.32033049490714e+05	(7.08972291395876e+01dB,-1.91361003482136e+00°)
6.36429187003948e+05	(7.08972678439413e+01dB,-1.93928740665237e+00°)
6.40855902071711e+05	(7.08973044778031e+01dB,-1.96505766681058e+00°)
6.45313407377714e+05	(7.08973390506198e+01dB,-1.99092205329589e+00°)
6.49801917085002e+05	(7.08973715713725e+01dB,-2.01688180846217e+00°)
6.54321646846238e+05	(7.08974020485801e+01dB,-2.04293817908193e+00°)
6.58872813814072e+05	(7.08974304903031e+01dB,-2.06909241640397e+00°)
6.63455636651567e+05	(7.08974569041471e+01dB,-2.09534577621897e+00°)
6.68070335542709e+05	(7.08974812972666e+01dB,-2.12169951891314e+00°)
6.72717132202986e+05	(7.08975036763678e+01dB,-2.14815490953951e+00°)
6.77396249890036e+05	(7.08975240477120e+01dB,-2.17471321787246e+00°)
6.82107913414380e+05	(7.08975424171187e+01dB,-2.20137571847000e+00°)
6.86852349150217e+05	(7.08975587899682e+01dB,-2.22814369073860e+00°)
6.91629785046307e+05	(7.08975731712043e+01dB,-2.25501841899346e+00°)
6.96440450636914e+05	(7.08975855653371e+01dB,-2.28200119251714e+00°)
7.01284577052843e+05	(7.08975959764453e+01dB,-2.30909330563156e+00°)
7.06162397032539e+05	(7.08976044081786e+01dB,-2.33629605774737e+00°)
7.11074144933271e+05	(7.08976108637599e+01dB,-2.36361075343281e+00°)
7.16020056742393e+05	(7.08976153459871e+01dB,-2.39103870248143e+00°)
7.21000370088680e+05	(7.08976178572354e+01dB,-2.41858121996552e+00°)
7.26015324253744e+05	(7.08976183994589e+01dB,-2.44623962630159e+00°)
7.31065160183536e+05	(7.08976169741924e+01dB,-2.47401524731967e+00°)
