Freq.	V(n016)
1.00000000000000e+05	(7.11412708224047e+01dB,4.82078597876358e+00°)
1.00695555005672e+05	(7.11439265010262e+01dB,4.77957894496143e+00°)
1.01395947979003e+05	(7.11466006136436e+01dB,4.73858675735132e+00°)
1.02101212570719e+05	(7.11492937079512e+01dB,4.69780753507014e+00°)
1.02811382665607e+05	(7.11520063365976e+01dB,4.65723940145183e+00°)
1.03526492384138e+05	(7.11547390573252e+01dB,4.61688048397541e+00°)
1.04246576084112e+05	(7.11574924331128e+01dB,4.57672891422017e+00°)
1.04971668362307e+05	(7.11602670323160e+01dB,4.53678282775661e+00°)
1.05701804056138e+05	(7.11630634288151e+01dB,4.49704036410919e+00°)
1.06437018245336e+05	(7.11658822021622e+01dB,4.45749966666525e+00°)
1.07177346253629e+05	(7.11687239377319e+01dB,4.41815888261401e+00°)
1.07922823650443e+05	(7.11715892268739e+01dB,4.37901616284922e+00°)
1.08673486252606e+05	(7.11744786670667e+01dB,4.34006966187696e+00°)
1.09429370126074e+05	(7.11773928620804e+01dB,4.30131753778368e+00°)
1.10190511587661e+05	(7.11803324221322e+01dB,4.26275795208190e+00°)
1.10956947206785e+05	(7.11832979640544e+01dB,4.22438906967621e+00°)
1.11728713807222e+05	(7.11862901114578e+01dB,4.18620905873081e+00°)
1.12505848468881e+05	(7.11893094949011e+01dB,4.14821609057572e+00°)
1.13288388529580e+05	(7.11923567520666e+01dB,4.11040833964171e+00°)
1.14076371586843e+05	(7.11954325279328e+01dB,4.07278398332615e+00°)
1.14869835499704e+05	(7.11985374749541e+01dB,4.03534120190053e+00°)
1.15668818390529e+05	(7.12016722532424e+01dB,3.99807817838759e+00°)
1.16473358646846e+05	(7.12048375307535e+01dB,3.96099309847458e+00°)
1.17283494923188e+05	(7.12080339834746e+01dB,3.92408415037345e+00°)
1.18099266142953e+05	(7.12112622956182e+01dB,3.88734952471762e+00°)
1.18920711500272e+05	(7.12145231598174e+01dB,3.85078741443761e+00°)
1.19747870461893e+05	(7.12178172773250e+01dB,3.81439601462842e+00°)
1.20580782769076e+05	(7.12211453582203e+01dB,3.77817352244400e+00°)
1.21419488439505e+05	(7.12245081216130e+01dB,3.74211813693195e+00°)
1.22264027769207e+05	(7.12279062958568e+01dB,3.70622805892292e+00°)
1.23114441334492e+05	(7.12313406187680e+01dB,3.67050149089922e+00°)
1.23970769993899e+05	(7.12348118378395e+01dB,3.63493663680669e+00°)
1.24833054890161e+05	(7.12383207104729e+01dB,3.59953170197159e+00°)
1.25701337452183e+05	(7.12418680042016e+01dB,3.56428489288515e+00°)
1.26575659397028e+05	(7.12454544969303e+01dB,3.52919441710975e+00°)
1.27456062731927e+05	(7.12490809771712e+01dB,3.49425848308617e+00°)
1.28342589756291e+05	(7.12527482442869e+01dB,3.45947529996649e+00°)
1.29235283063750e+05	(7.12564571087425e+01dB,3.42484307747227e+00°)
1.30134185544194e+05	(7.12602083923564e+01dB,3.39036002569140e+00°)
1.31039340385837e+05	(7.12640029285625e+01dB,3.35602435492347e+00°)
1.31950791077290e+05	(7.12678415626768e+01dB,3.32183427551749e+00°)
1.32868581409652e+05	(7.12717251521650e+01dB,3.28778799764433e+00°)
1.33792755478612e+05	(7.12756545669198e+01dB,3.25388373111551e+00°)
1.34723357686569e+05	(7.12796306895477e+01dB,3.22011968522690e+00°)
1.35660432744768e+05	(7.12836544156549e+01dB,3.18649406851750e+00°)
1.36604025675440e+05	(7.12877266541443e+01dB,3.15300508858319e+00°)
1.37554181813975e+05	(7.12918483275166e+01dB,3.11965095185128e+00°)
1.38510946811093e+05	(7.12960203721809e+01dB,3.08642986337726e+00°)
1.39474366635041e+05	(7.13002437387718e+01dB,3.05334002663166e+00°)
1.40444487573800e+05	(7.13045193924697e+01dB,3.02037964324421e+00°)
1.41421356237310e+05	(7.13088483133350e+01dB,2.98754691279385e+00°)
1.42405019559708e+05	(7.13132314966433e+01dB,2.95484003254815e+00°)
1.43395524801583e+05	(7.13176699532361e+01dB,2.92225719724749e+00°)
1.44392919552250e+05	(7.13221647098720e+01dB,2.88979659881936e+00°)
1.45397251732032e+05	(7.13267168095908e+01dB,2.85745642613839e+00°)
1.46408569594563e+05	(7.13313273120854e+01dB,2.82523486475172e+00°)
1.47426921729111e+05	(7.13359972940828e+01dB,2.79313009661101e+00°)
1.48452357062906e+05	(7.13407278497315e+01dB,2.76114029977620e+00°)
1.49484924863494e+05	(7.13455200910032e+01dB,2.72926364813806e+00°)
1.50524674741107e+05	(7.13503751481020e+01dB,2.69749831113595e+00°)
1.51571656651040e+05	(7.13552941698825e+01dB,2.66584245342861e+00°)
1.52625920896057e+05	(7.13602783242756e+01dB,2.63429423456763e+00°)
1.53687518128802e+05	(7.13653287987352e+01dB,2.60285180871987e+00°)
1.54756499354240e+05	(7.13704468006866e+01dB,2.57151332431435e+00°)
1.55832915932101e+05	(7.13756335579855e+01dB,2.54027692367929e+00°)
1.56916819579351e+05	(7.13808903193966e+01dB,2.50914074271974e+00°)
1.58008262372676e+05	(7.13862183550782e+01dB,2.47810291055246e+00°)
1.59107296750985e+05	(7.13916189570818e+01dB,2.44716154913206e+00°)
1.60213975517925e+05	(7.13970934398630e+01dB,2.41631477287562e+00°)
1.61328351844426e+05	(7.14026431408057e+01dB,2.38556068825215e+00°)
1.62450479271248e+05	(7.14082694207620e+01dB,2.35489739340150e+00°)
1.63580411711557e+05	(7.14139736646038e+01dB,2.32432297769359e+00°)
1.64718203453515e+05	(7.14197572817958e+01dB,2.29383552136174e+00°)
1.65863909162889e+05	(7.14256217069678e+01dB,2.26343309496974e+00°)
1.67017583885675e+05	(7.14315684005212e+01dB,2.23311375902481e+00°)
1.68179283050744e+05	(7.14375988492437e+01dB,2.20287556351753e+00°)
1.69349062472506e+05	(7.14437145669334e+01dB,2.17271654738441e+00°)
1.70526978353592e+05	(7.14499170950548e+01dB,2.14263473807163e+00°)
1.71713087287552e+05	(7.14562080033992e+01dB,2.11262815098696e+00°)
1.72907446261574e+05	(7.14625888907745e+01dB,2.08269478900700e+00°)
1.74110112659226e+05	(7.14690613857031e+01dB,2.05283264189754e+00°)
1.75321144263208e+05	(7.14756271471499e+01dB,2.02303968578940e+00°)
1.76540599258132e+05	(7.14822878652624e+01dB,1.99331388258084e+00°)
1.77768536233315e+05	(7.14890452621386e+01dB,1.96365317935817e+00°)
1.79005014185596e+05	(7.14959010926117e+01dB,1.93405550777973e+00°)
1.80250092522167e+05	(7.15028571450553e+01dB,1.90451878341959e+00°)
1.81503831063433e+05	(7.15099152422251e+01dB,1.87504090516877e+00°)
1.82766290045881e+05	(7.15170772421068e+01dB,1.84561975451704e+00°)
1.84037530124976e+05	(7.15243450387999e+01dB,1.81625319487036e+00°)
1.85317612378075e+05	(7.15317205634280e+01dB,1.78693907084841e+00°)
1.86606598307363e+05	(7.15392057850659e+01dB,1.75767520750507e+00°)
1.87904549842804e+05	(7.15468027117095e+01dB,1.72845940960990e+00°)
1.89211529345120e+05	(7.15545133912614e+01dB,1.69928946083256e+00°)
1.90527599608789e+05	(7.15623399125534e+01dB,1.67016312293223e+00°)
1.91852823865054e+05	(7.15702844063967e+01dB,1.64107813490790e+00°)
1.93187265784970e+05	(7.15783490466636e+01dB,1.61203221211977e+00°)
1.94530989482458e+05	(7.15865360514054e+01dB,1.58302304538517e+00°)
1.95884059517387e+05	(7.15948476840085e+01dB,1.55404830009128e+00°)
1.97246540898673e+05	(7.16032862543689e+01dB,1.52510561514016e+00°)
1.98618499087409e+05	(7.16118541201275e+01dB,1.49619260202858e+00°)
2.00000000000001e+05	(7.16205536879235e+01dB,1.46730684376216e+00°)
2.01391110011345e+05	(7.16293874147049e+01dB,1.43844589381887e+00°)
2.02791895958007e+05	(7.16383578090605e+01dB,1.40960727500152e+00°)
2.04202425141440e+05	(7.16474674326154e+01dB,1.38078847831363e+00°)
2.05622765331215e+05	(7.16567189014590e+01dB,1.35198696176431e+00°)
2.07052984768277e+05	(7.16661148876173e+01dB,1.32320014911146e+00°)
2.08493152168226e+05	(7.16756581205868e+01dB,1.29442542861768e+00°)
2.09943336724615e+05	(7.16853513889028e+01dB,1.26566015169018e+00°)
2.11403608112278e+05	(7.16951975417683e+01dB,1.23690163151002e+00°)
2.12874036490674e+05	(7.17051994907371e+01dB,1.20814714162178e+00°)
2.14354692507260e+05	(7.17153602114467e+01dB,1.17939391441046e+00°)
2.15845647300887e+05	(7.17256827454216e+01dB,1.15063913961472e+00°)
2.17346972505213e+05	(7.17361702019202e+01dB,1.12187996267824e+00°)
2.18858740252150e+05	(7.17468257598630e+01dB,1.09311348311741e+00°)
2.20381023175324e+05	(7.17576526698141e+01dB,1.06433675279949e+00°)
2.21913894413571e+05	(7.17686542560355e+01dB,1.03554677412187e+00°)
2.23457427614446e+05	(7.17798339186152e+01dB,1.00674049818868e+00°)
2.25011696937764e+05	(7.17911951356618e+01dB,9.77914822827498e-01°)
2.26576777059162e+05	(7.18027414655882e+01dB,9.49066590620930e-01°)
2.28152743173687e+05	(7.18144765494650e+01dB,9.20192586776676e-01°)
2.29739670999409e+05	(7.18264041134666e+01dB,8.91289536973893e-01°)
2.31337636781059e+05	(7.18385279713934e+01dB,8.62354105051982e-01°)
2.32946717293693e+05	(7.18508520273030e+01dB,8.33382890698821e-01°)
2.34566989846378e+05	(7.18633802782188e+01dB,8.04372426940657e-01°)
2.36198532285908e+05	(7.18761168169521e+01dB,7.75319177626695e-01°)
2.37841423000546e+05	(7.18890658350124e+01dB,7.46219534677272e-01°)
2.39495740923788e+05	(7.19022316256533e+01dB,7.17069815409059e-01°)
2.41161565538154e+05	(7.19156185869935e+01dB,6.87866259517927e-01°)
2.42838976879012e+05	(7.19292312252904e+01dB,6.58605026103802e-01°)
2.44528055538416e+05	(7.19430741583198e+01dB,6.29282190503433e-01°)
2.46228882668985e+05	(7.19571521188923e+01dB,5.99893740992046e-01°)
2.47941539987800e+05	(7.19714699584902e+01dB,5.70435575289237e-01°)
2.49666109780325e+05	(7.19860326510738e+01dB,5.40903497029143e-01°)
2.51402674904368e+05	(7.20008452970011e+01dB,5.11293211925038e-01°)
2.53151318794058e+05	(7.20159131271351e+01dB,4.81600323899187e-01°)
2.54912125463855e+05	(7.20312415070828e+01dB,4.51820330899534e-01°)
2.56685179512583e+05	(7.20468359416343e+01dB,4.21948620677419e-01°)
2.58470566127501e+05	(7.20627020793449e+01dB,3.91980466190289e-01°)
2.60268371088389e+05	(7.20788457173467e+01dB,3.61911021006121e-01°)
2.62078680771675e+05	(7.20952728063054e+01dB,3.31735314243226e-01°)
2.63901582154581e+05	(7.21119894556223e+01dB,3.01448245484768e-01°)
2.65737162819305e+05	(7.21290019388346e+01dB,2.71044579341283e-01°)
2.67585510957225e+05	(7.21463166992381e+01dB,2.40518939764871e-01°)
2.69446715373141e+05	(7.21639403557527e+01dB,2.09865804096329e-01°)
2.71320865489537e+05	(7.21818797090309e+01dB,1.79079496811455e-01°)
2.73208051350882e+05	(7.22001417478398e+01dB,1.48154183010632e-01°)
2.75108363627951e+05	(7.22187336556909e+01dB,1.17083861449658e-01°)
2.77021893622188e+05	(7.22376628177899e+01dB,8.58623573956589e-02°)
2.78948733270084e+05	(7.22569368282620e+01dB,5.44833149607614e-02°)
2.80888975147602e+05	(7.22765634977160e+01dB,2.29401891598679e-02°)
2.82842712474622e+05	(7.22965508611371e+01dB,-8.77376248338300e-03°)
2.84810039119417e+05	(7.23169071861209e+01dB,-4.06654888203319e-02°)
2.86791049603169e+05	(7.23376409814976e+01dB,-7.27421543537716e-02°)
2.88785839104502e+05	(7.23587610063459e+01dB,-1.05011149011722e-01°)
2.90794503464065e+05	(7.23802762794024e+01dB,-1.37480098506855e-01°)
2.92817139189128e+05	(7.24021960889296e+01dB,-1.70156875201222e-01°)
2.94853843458223e+05	(7.24245300030329e+01dB,-2.03049609556971e-01°)
2.96904714125813e+05	(7.24472878804600e+01dB,-2.36166702278572e-01°)
2.98969849726991e+05	(7.24704798819247e+01dB,-2.69516837043482e-01°)
3.01049349482217e+05	(7.24941164819581e+01dB,-3.03108994043598e-01°)
3.03143313302083e+05	(7.25182084813464e+01dB,-3.36952464195973e-01°)
3.05251841792115e+05	(7.25427670201667e+01dB,-3.71056864232218e-01°)
3.07375036257606e+05	(7.25678035914627e+01dB,-4.05432152653005e-01°)
3.09512998708482e+05	(7.25933300556162e+01dB,-4.40088646540059e-01°)
3.11665831864204e+05	(7.26193586554030e+01dB,-4.75037039493487e-01°)
3.13833639158704e+05	(7.26459020318459e+01dB,-5.10288420503276e-01°)
3.16016524745355e+05	(7.26729732408652e+01dB,-5.45854293993919e-01°)
3.18214593501971e+05	(7.27005857707721e+01dB,-5.81746601138477e-01°)
3.20427951035853e+05	(7.27287535606949e+01dB,-6.17977742384095e-01°)
3.22656703688854e+05	(7.27574910199519e+01dB,-6.54560601453756e-01°)
3.24900958542498e+05	(7.27868130484607e+01dB,-6.91508570818227e-01°)
3.27160823423117e+05	(7.28167350582507e+01dB,-7.28835578712627e-01°)
3.29436406907033e+05	(7.28472729961109e+01dB,-7.66556118011350e-01°)
3.31727818325781e+05	(7.28784433675054e+01dB,-8.04685276818882e-01°)
3.34035167771352e+05	(7.29102632617779e+01dB,-8.43238771177699e-01°)
3.36358566101490e+05	(7.29427503787918e+01dB,-8.82232979840864e-01°)
3.38698124945015e+05	(7.29759230570405e+01dB,-9.21684981405307e-01°)
3.41053956707187e+05	(7.30098003033823e+01dB,-9.61612593917027e-01°)
3.43426174575106e+05	(7.30444018244528e+01dB,-1.00203441726868e+00°)
3.45814892523151e+05	(7.30797480599510e+01dB,-1.04296987831005e+00°)
3.48220225318454e+05	(7.31158602178239e+01dB,-1.08443927936318e+00°)
3.50642288526419e+05	(7.31527603115840e+01dB,-1.12646384993603e+00°)
3.53081198516267e+05	(7.31904711998475e+01dB,-1.16906580226139e+00°)
3.55537072466633e+05	(7.32290166282756e+01dB,-1.21226839076454e+00°)
3.58010028371194e+05	(7.32684212740892e+01dB,-1.25609597592771e+00°)
3.60500185044337e+05	(7.33087107933561e+01dB,-1.30057409283941e+00°)
3.63007662126869e+05	(7.33499118712410e+01dB,-1.34572952487073e+00°)
3.65532580091765e+05	(7.33920522754527e+01dB,-1.39159038297590e+00°)
3.68075060249955e+05	(7.34351609131306e+01dB,-1.43818619101119e+00°)
3.70635224756154e+05	(7.34792678914313e+01dB,-1.48554797775122e+00°)
3.73213196614728e+05	(7.35244045821157e+01dB,-1.53370837608081e+00°)
3.75809099685610e+05	(7.35706036904305e+01dB,-1.58270173014772e+00°)
3.78423058690244e+05	(7.36178993286639e+01dB,-1.63256421114972e+00°)
3.81055199217580e+05	(7.36663270947100e+01dB,-1.68333394260396e+00°)
3.83705647730111e+05	(7.37159241561046e+01dB,-1.73505113599806e+00°)
3.86374531569944e+05	(7.37667293399322e+01dB,-1.78775823791435e+00°)
3.89061978964920e+05	(7.38187832291510e+01dB,-1.84150008962925e+00°)
3.91768119034777e+05	(7.38721282658587e+01dB,-1.89632410055683e+00°)
3.94493081797350e+05	(7.39268088620948e+01dB,-1.95228043694889e+00°)
3.97236998174820e+05	(7.39828715188563e+01dB,-2.00942222741290e+00°)
4.00000000000006e+05	(7.40403649540683e+01dB,-2.06780578690018e+00°)
4.02782220022694e+05	(7.40993402402947e+01dB,-2.12749086138927e+00°)
4.05583791916018e+05	(7.41598509530854e+01dB,-2.18854089530240e+00°)
4.08404850282884e+05	(7.42219533309864e+01dB,-2.25102332421557e+00°)
4.11245530662433e+05	(7.42857064482721e+01dB,-2.31500989572989e+00°)
4.14105969536557e+05	(7.43511724016282e+01dB,-2.38057702171538e+00°)
4.16986304336455e+05	(7.44184165121857e+01dB,-2.44780616541640e+00°)
4.19886673449234e+05	(7.44875075443666e+01dB,-2.51678426773607e+00°)
4.22807216224559e+05	(7.45585179432601e+01dB,-2.58760421721958e+00°)
4.25748072981351e+05	(7.46315240924518e+01dB,-2.66036536905104e+00°)
4.28709385014524e+05	(7.47066065943689e+01dB,-2.73517411924298e+00°)
4.31691294601778e+05	(7.47838505755637e+01dB,-2.81214454084104e+00°)
4.34693945010430e+05	(7.48633460196162e+01dB,-2.89139909014758e+00°)
4.37717480504303e+05	(7.49451881306454e+01dB,-2.97306939206235e+00°)
4.40762046350651e+05	(7.50294777308452e+01dB,-3.05729711519028e+00°)
4.43827788827145e+05	(7.51163216959298e+01dB,-3.14423494860410e+00°)
4.46914855228895e+05	(7.52058334327866e+01dB,-3.23404769464233e+00°)
4.50023393875531e+05	(7.52981334043662e+01dB,-3.32691349378715e+00°)
4.53153554118327e+05	(7.53933497074140e+01dB,-3.42302520079943e+00°)
4.56305486347377e+05	(7.54916187094958e+01dB,-3.52259193418365e+00°)
4.59479341998822e+05	(7.55930857527036e+01dB,-3.62584082499203e+00°)
4.62675273562123e+05	(7.56979059324599e+01dB,-3.73301899544929e+00°)
4.65893434587390e+05	(7.58062449611645e+01dB,-3.84439580336978e+00°)
4.69133979692759e+05	(7.59182801278903e+01dB,-3.96026539464857e+00°)
4.72397064571820e+05	(7.60342013670241e+01dB,-4.08094961457889e+00°)
4.75682846001097e+05	(7.61542124509079e+01dB,-4.20680133766352e+00°)
4.78991481847580e+05	(7.62785323238936e+01dB,-4.33820828783103e+00°)
4.82323131076312e+05	(7.64073965981624e+01dB,-4.47559743517374e+00°)
4.85677953758027e+05	(7.65410592350663e+01dB,-4.61944007294360e+00°)
4.89056111076836e+05	(7.66797944399751e+01dB,-4.77025770027114e+00°)
4.92457765337975e+05	(7.68238988034017e+01dB,-4.92862886370303e+00°)
4.95883079975603e+05	(7.69736937273429e+01dB,-5.09519714383736e+00°)
4.99332219560654e+05	(7.71295281828398e+01dB,-5.27068051631230e+00°)
5.02805349808740e+05	(7.72917818535810e+01dB,-5.45588237029351e+00°)
5.06302637588121e+05	(7.74608687310590e+01dB,-5.65170453535347e+00°)
5.09824250927714e+05	(7.76372412398578e+01dB,-5.85916275537336e+00°)
5.13370359025171e+05	(7.78213949876805e+01dB,-6.07940516034054e+00°)
5.16941132255006e+05	(7.80138742545369e+01dB,-6.31373443262861e+00°)
5.20536742176783e+05	(7.82152783600984e+01dB,-6.56363455431172e+00°)
5.24157361543355e+05	(7.84262690785888e+01dB,-6.83080327294602e+00°)
5.27803164309167e+05	(7.86475793088552e+01dB,-7.11719175475068e+00°)
5.31474325638614e+05	(7.88800232546241e+01dB,-7.42505333953110e+00°)
5.35171021914455e+05	(7.91245084300744e+01dB,-7.75700391174324e+00°)
5.38893430746286e+05	(7.93820498807775e+01dB,-8.11609722225244e+00°)
5.42641730979079e+05	(7.96537871050018e+01dB,-8.50591962434344e+00°)
5.46416102701768e+05	(7.99410042789428e+01dB,-8.93071026244461e+00°)
5.50216727255908e+05	(8.02451545384839e+01dB,-9.39551497036247e+00°)
5.54043787244380e+05	(8.05678892534730e+01dB,-9.90638530463042e+00°)
5.57897466540173e+05	(8.09110934539364e+01dB,-1.04706387175313e+01°)
5.61777950295210e+05	(8.12769288279436e+01dB,-1.10972025898583e+01°)
5.65685424949249e+05	(8.16678859933075e+01dB,-1.17970748289736e+01°)
5.69620078238840e+05	(8.20868480005083e+01dB,-1.25839488162444e+01°)
5.73582099206342e+05	(8.25371671285253e+01dB,-1.34750736079158e+01°)
5.77571678209010e+05	(8.30227567002056e+01dB,-1.44924563091630e+01°)
5.81589006928136e+05	(8.35481982164110e+01dB,-1.56645704944898e+01°)
5.85634278378262e+05	(8.41188601258909e+01dB,-1.70288258464063e+01°)
5.89707686916452e+05	(8.47410147242935e+01dB,-1.86352019669056e+01°)
5.93809428251631e+05	(8.54219165537801e+01dB,-2.05516888721020e+01°)
5.97939699453987e+05	(8.61697521212285e+01dB,-2.28725585673441e+01°)
6.02098698964439e+05	(8.69932470369865e+01dB,-2.57310649291331e+01°)
6.06286626604171e+05	(8.79004310739210e+01dB,-2.93188724502550e+01°)
6.10503683584236e+05	(8.88954114441417e+01dB,-3.39147146995044e+01°)
6.14750072515217e+05	(8.99706100120563e+01dB,-3.99215385889729e+01°)
6.19025997416968e+05	(9.10894963811145e+01dB,-4.78940080723047e+01°)
6.23331663728412e+05	(9.21537840290215e+01dB,-5.84781858691226e+01°)
6.27667278317413e+05	(9.29645018164454e+01dB,-7.20627364709071e+01°)
6.32033049490714e+05	(9.32475436421257e+01dB,-8.80034750805047e+01°)
6.36429187003948e+05	(9.28369681010140e+01dB,-1.04212568403608e+02°)
6.40855902071711e+05	(9.18457585395623e+01dB,-1.18401409224627e+02°)
6.45313407377714e+05	(9.05452578113203e+01dB,-1.29609392691253e+02°)
6.49801917085002e+05	(8.91569486527548e+01dB,-1.38080522810337e+02°)
6.54321646846238e+05	(8.77976430633496e+01dB,-1.44450240756094e+02°)
6.58872813814072e+05	(8.65135533111255e+01dB,-1.49303423804007e+02°)
6.63455636651567e+05	(8.53164052012169e+01dB,-1.53074055112128e+02°)
6.68070335542709e+05	(8.42035872201782e+01dB,-1.56063960100305e+02°)
6.72717132202986e+05	(8.31674198356036e+01dB,-1.58480531038545e+02°)
6.77396249890036e+05	(8.21990652521445e+01dB,-1.60467502992061e+02°)
6.82107913414380e+05	(8.12900560424917e+01dB,-1.62126154992531e+02°)
6.86852349150217e+05	(8.04328101301984e+01dB,-1.63529223123627e+02°)
6.91629785046307e+05	(7.96207292476683e+01dB,-1.64729955342891e+02°)
6.96440450636914e+05	(7.88481372061627e+01dB,-1.65768050883987e+02°)
7.01284577052843e+05	(7.81101665227187e+01dB,-1.66673613313816e+02°)
7.06162397032539e+05	(7.74026379792843e+01dB,-1.67469826984269e+02°)
7.11074144933271e+05	(7.67219500350760e+01dB,-1.68174801519329e+02°)
7.16020056742393e+05	(7.60649832019974e+01dB,-1.68802865191317e+02°)
7.21000370088680e+05	(7.54290196371898e+01dB,-1.69365486976581e+02°)
7.26015324253744e+05	(7.48116763994111e+01dB,-1.69871944190203e+02°)
